Time [s],Value,Parity Error,Framing Error
5.1974100000,0x58,,Error
5.1990850000,0x8B,,
5.2001350000,0xFD,,
5.2011850000,0x8B,,
5.2022350000,0xF9,,
5.2032850000,0x8B,,
5.2043350000,0x7D,,
5.2053850000,0x59,,
5.2064350000,0x8B,,
5.2074900000,0x8B,,
5.2085400000,0xD9,,
5.2095900000,0x8B,,
5.2106400000,0x71,,
5.2116900000,0x83,,
5.2127400000,0x00,,Error
5.2845400000,0x58,,Error
5.2862100000,0x8B,,
5.2872650000,0xFD,,
5.2883150000,0x8B,,
5.2893650000,0xF9,,
5.2904150000,0x8B,,
5.2914650000,0x59,,
5.2925150000,0x57,,
5.2935650000,0x8B,,
5.2946200000,0x8B,,
5.2956700000,0xF3,,
5.2967200000,0x8B,,
5.2977700000,0x71,,
5.2988200000,0x83,,
5.2998700000,0x00,,Error
6.4306850000,0x58,,Error
6.4323600000,0x8B,,
6.4334100000,0xFD,,
6.4344650000,0x8B,,
6.4355150000,0xF9,,
6.4365650000,0x8B,,
6.4376150000,0x59,,
6.4386650000,0x57,,
6.4397150000,0x8B,,
6.4407650000,0x8B,,
6.4418200000,0xF3,,
6.4428700000,0x8B,,
6.4439200000,0x71,,
6.4449700000,0x83,,
6.4460200000,0x00,,Error
7.4378300000,0x58,,Error
7.4395050000,0x8B,,
7.4405550000,0xFD,,
7.4416050000,0x8B,,
7.4426550000,0xF9,,
7.4437100000,0x8B,,
7.4447600000,0x59,,
7.4458100000,0x57,,
7.4468600000,0x8B,,
7.4479100000,0x8B,,
7.4489600000,0xF3,,
7.4500100000,0x8B,,
7.4510650000,0x71,,
7.4521150000,0x83,,
7.4531650000,0x00,,Error
8.4536600000,0x58,,Error
8.4553350000,0x8B,,
8.4563850000,0xFD,,
8.4574350000,0x8B,,
8.4584850000,0xF9,,
8.4595350000,0x8B,,
8.4605900000,0x59,,
8.4616400000,0x57,,
8.4626900000,0x8B,,
8.4637400000,0x8B,,
8.4647900000,0xF3,,
8.4658400000,0x8B,,
8.4668900000,0x71,,
8.4679400000,0x83,,
8.4689950000,0x00,,Error
9.4639800000,0x58,,Error
9.4656550000,0x8B,,
9.4667050000,0xFD,,
9.4677550000,0x8B,,
9.4688050000,0xF9,,
9.4698550000,0x8B,,
9.4709050000,0x59,,
9.4719600000,0x57,,
9.4730100000,0x8B,,
9.4740600000,0x8B,,
9.4751100000,0xF3,,
9.4761600000,0x8B,,
9.4772100000,0x71,,
9.4782600000,0x83,,
9.4793150000,0x00,,Error
10.4795350000,0x58,,Error
10.4812100000,0x8B,,
10.4822600000,0xFD,,
10.4833100000,0x8B,,
10.4843650000,0xF9,,
10.4854150000,0x8B,,
10.4864650000,0x59,,
10.4875150000,0x57,,
10.4885650000,0x8B,,
10.4896150000,0x8B,,
10.4906650000,0xF3,,
10.4917200000,0x8B,,
10.4927700000,0x71,,
10.4938200000,0x83,,
10.4948700000,0x00,,Error
11.4865000000,0x58,,Error
11.4881750000,0x8B,,
11.4892250000,0xFD,,
11.4902750000,0x8B,,
11.4913250000,0xF9,,
11.4923750000,0x8B,,
11.4934250000,0x59,,
11.4944750000,0x57,,
11.4955300000,0x8B,,
11.4965800000,0x8B,,
11.4976300000,0xF3,,
11.4986800000,0x8B,,
11.4997300000,0x71,,
11.5007800000,0x83,,
11.5018300000,0x00,,Error
12.1608500000,0x58,,Error
12.1625250000,0x8B,,
12.1635750000,0xFD,,
12.1646250000,0x8B,,
12.1656750000,0xF9,,
12.1667250000,0x8B,,
12.1677750000,0x7D,,
12.1688250000,0x59,,
12.1698800000,0x8B,,
12.1709300000,0x8B,,
12.1719800000,0xD9,,
12.1730300000,0x8B,,
12.1740800000,0x71,,
12.1751300000,0x83,,
12.1761800000,0x00,,Error
12.2366200000,0x58,,Error
12.2382900000,0x8B,,
12.2393450000,0xFD,,
12.2403950000,0x8B,,
12.2414450000,0xF3,,
12.2424950000,0x8B,,
12.2435450000,0x5F,,
12.2445950000,0x5F,,
12.2456450000,0x8B,,
12.2467000000,0x9D,,
12.2477500000,0x8F,,
12.2488000000,0x9F,,
12.2498500000,0x8B,,
12.2509000000,0x85,,
12.2519500000,0x8B,,
12.2530000000,0x71,,
12.2540550000,0x83,,
12.2551050000,0x00,,Error
12.5066600000,0x58,,Error
12.5083350000,0x8B,,
12.5093850000,0xFD,,
12.5104350000,0x8B,,
12.5114850000,0xF9,,
12.5125350000,0x8B,,
12.5135850000,0x7D,,
12.5146350000,0x59,,
12.5156850000,0x8B,,
12.5167400000,0x8B,,
12.5177900000,0xD9,,
12.5188400000,0x8B,,
12.5198900000,0x71,,
12.5209400000,0x83,,
12.5219900000,0x00,,Error
12.7681200000,0x58,,Error
12.7697950000,0x8B,,
12.7708450000,0xFD,,
12.7719000000,0x8B,,
12.7729500000,0xF9,,
12.7740000000,0x8B,,
12.7750500000,0x7D,,
12.7761000000,0x59,,
12.7771500000,0x8B,,
12.7782000000,0x8B,,
12.7792550000,0xD9,,
12.7803050000,0x8B,,
12.7813550000,0x71,,
12.7824050000,0x83,,
12.7834550000,0x00,,Error
13.0383950000,0x58,,Error
13.0400700000,0x8B,,
13.0411200000,0xFD,,
13.0421750000,0x8B,,
13.0432250000,0xF9,,
13.0442750000,0x8B,,
13.0453250000,0x7D,,
13.0463750000,0x59,,
13.0474250000,0x8B,,
13.0484750000,0x8B,,
13.0495300000,0xD9,,
13.0505800000,0x8B,,
13.0516300000,0x71,,
13.0526800000,0x83,,
13.0537300000,0x00,,Error
13.3084350000,0x58,,Error
13.3101100000,0x8B,,
13.3111650000,0xFD,,
13.3122150000,0x8B,,
13.3132650000,0xF9,,
13.3143150000,0x8B,,
13.3153650000,0x7D,,
13.3164150000,0x59,,
13.3174650000,0x8B,,
13.3185150000,0x8B,,
13.3195700000,0xD9,,
13.3206200000,0x8B,,
13.3216700000,0x71,,
13.3227200000,0x83,,
13.3237700000,0x00,,Error
13.5684050000,0x58,,Error
13.5700800000,0x8B,,
13.5711300000,0xFD,,
13.5721800000,0x8B,,
13.5732300000,0xF9,,
13.5742850000,0x8B,,
13.5753350000,0x7D,,
13.5763850000,0x59,,
13.5774350000,0x8B,,
13.5784850000,0x8B,,
13.5795350000,0xD9,,
13.5805850000,0x8B,,
13.5816400000,0x71,,
13.5826900000,0x83,,
13.5837400000,0x00,,Error
13.8275950000,0x58,,Error
13.8292700000,0x8B,,
13.8303200000,0xFD,,
13.8313700000,0x8B,,
13.8324200000,0xF9,,
13.8334700000,0x8B,,
13.8345250000,0x7D,,
13.8355750000,0x59,,
13.8366250000,0x8B,,
13.8376750000,0x8B,,
13.8387250000,0xD9,,
13.8397750000,0x8B,,
13.8408250000,0x71,,
13.8418800000,0x83,,
13.8429300000,0x00,,Error
14.0992500000,0x58,,Error
14.1009250000,0x8B,,
14.1019750000,0xFD,,
14.1030250000,0x8B,,
14.1040800000,0xF9,,
14.1051300000,0x8B,,
14.1061800000,0x7D,,
14.1072300000,0x59,,
14.1082800000,0x8B,,
14.1093300000,0x8B,,
14.1103800000,0xD9,,
14.1114350000,0x8B,,
14.1124850000,0x71,,
14.1135350000,0x83,,
14.1145850000,0x00,,Error
14.3691900000,0x58,,Error
14.3708650000,0x8B,,
14.3719150000,0xFD,,
14.3729650000,0x8B,,
14.3740150000,0xF9,,
14.3750650000,0x8B,,
14.3761200000,0x7D,,
14.3771700000,0x59,,
14.3782200000,0x8B,,
14.3792700000,0x8B,,
14.3803200000,0xD9,,
14.3813700000,0x8B,,
14.3824200000,0x71,,
14.3834750000,0x83,,
14.3845250000,0x00,,Error
14.6290450000,0x58,,Error
14.6307200000,0x8B,,
14.6317700000,0xFD,,
14.6328200000,0x8B,,
14.6338700000,0xF9,,
14.6349200000,0x8B,,
14.6359700000,0x7D,,
14.6370200000,0x59,,
14.6380750000,0x8B,,
14.6391250000,0x8B,,
14.6401750000,0xD9,,
14.6412250000,0x8B,,
14.6422750000,0x71,,
14.6433250000,0x83,,
14.6443750000,0x00,,Error
14.8974050000,0x58,,Error
14.8990800000,0x8B,,
14.9001300000,0xFD,,
14.9011800000,0x8B,,
14.9022300000,0xF9,,
14.9032800000,0x8B,,
14.9043300000,0x7D,,
14.9053800000,0x59,,
14.9064350000,0x8B,,
14.9074850000,0x8B,,
14.9085350000,0xD9,,
14.9095850000,0x8B,,
14.9106350000,0x71,,
14.9116850000,0x83,,
14.9127350000,0x00,,Error
15.1574550000,0x58,,Error
15.1591300000,0x8B,,
15.1601800000,0xFD,,
15.1612300000,0x8B,,
15.1622800000,0xF9,,
15.1633300000,0x8B,,
15.1643800000,0x7D,,
15.1654350000,0x59,,
15.1664850000,0x8B,,
15.1675350000,0x8B,,
15.1685850000,0xD9,,
15.1696350000,0x8B,,
15.1706850000,0x71,,
15.1717350000,0x83,,
15.1727900000,0x00,,Error
15.4287400000,0x58,,Error
15.4304150000,0x8B,,
15.4314700000,0xFD,,
15.4325200000,0x8B,,
15.4335700000,0xF9,,
15.4346200000,0x8B,,
15.4356700000,0x7D,,
15.4367200000,0x59,,
15.4377700000,0x8B,,
15.4388250000,0x8B,,
15.4398750000,0xD9,,
15.4409250000,0x8B,,
15.4419750000,0x71,,
15.4430250000,0x83,,
15.4440750000,0x00,,Error
15.6993650000,0x58,,Error
15.7010400000,0x8B,,
15.7020900000,0xFD,,
15.7031450000,0x8B,,
15.7041950000,0xF9,,
15.7052450000,0x8B,,
15.7062950000,0x7D,,
15.7073450000,0x59,,
15.7083950000,0x8B,,
15.7094450000,0x8B,,
15.7105000000,0xD9,,
15.7115500000,0x8B,,
15.7126000000,0x71,,
15.7136500000,0x83,,
15.7147000000,0x00,,Error
15.9586700000,0x58,,Error
15.9603450000,0x8B,,
15.9613950000,0xFD,,
15.9624450000,0x8B,,
15.9634950000,0xF9,,
15.9645450000,0x8B,,
15.9655950000,0x7D,,
15.9666450000,0x59,,
15.9677000000,0x8B,,
15.9687500000,0x8B,,
15.9698000000,0xD9,,
15.9708500000,0x8B,,
15.9719000000,0x71,,
15.9729500000,0x83,,
15.9740000000,0x00,,Error
16.2186650000,0x58,,Error
16.2203400000,0x8B,,
16.2213900000,0xFD,,
16.2224400000,0x8B,,
16.2234900000,0xF9,,
16.2245450000,0x8B,,
16.2255950000,0x7D,,
16.2266450000,0x59,,
16.2276950000,0x8B,,
16.2287450000,0x8B,,
16.2297950000,0xD9,,
16.2308450000,0x8B,,
16.2319000000,0x71,,
16.2329500000,0x83,,
16.2340000000,0x00,,Error
16.4891100000,0x58,,Error
16.4907850000,0x8B,,
16.4918350000,0xFD,,
16.4928850000,0x8B,,
16.4939400000,0xF9,,
16.4949900000,0x8B,,
16.4960400000,0x7D,,
16.4970900000,0x59,,
16.4981400000,0x8B,,
16.4991900000,0x8B,,
16.5002400000,0xD9,,
16.5012950000,0x8B,,
16.5023450000,0x71,,
16.5033950000,0x83,,
16.5044450000,0x00,,Error
16.7600000000,0x58,,Error
16.7616750000,0x8B,,
16.7627250000,0xFD,,
16.7637750000,0x8B,,
16.7648250000,0xF9,,
16.7658750000,0x8B,,
16.7669250000,0x7D,,
16.7679800000,0x59,,
16.7690300000,0x8B,,
16.7700800000,0x8B,,
16.7711300000,0xD9,,
16.7721800000,0x8B,,
16.7732300000,0x71,,
16.7742800000,0x83,,
16.7753350000,0x00,,Error
17.0201100000,0x58,,Error
17.0217850000,0x8B,,
17.0228350000,0xFD,,
17.0238850000,0x8B,,
17.0249350000,0xF9,,
17.0259850000,0x8B,,
17.0270350000,0x7D,,
17.0280900000,0x59,,
17.0291400000,0x8B,,
17.0301900000,0x8B,,
17.0312400000,0xD9,,
17.0322900000,0x8B,,
17.0333400000,0x71,,
17.0343900000,0x83,,
17.0354400000,0x00,,Error
17.2811500000,0x58,,Error
17.2828250000,0x8B,,
17.2838750000,0xFD,,
17.2849250000,0x8B,,
17.2859750000,0xF9,,
17.2870250000,0x8B,,
17.2880750000,0x7D,,
17.2891300000,0x59,,
17.2901800000,0x8B,,
17.2912300000,0x8B,,
17.2922800000,0xD9,,
17.2933300000,0x8B,,
17.2943800000,0x71,,
17.2954300000,0x83,,
17.2964800000,0x00,,Error
17.5513800000,0x58,,Error
17.5530550000,0x8B,,
17.5541050000,0xFD,,
17.5551550000,0x8B,,
17.5562100000,0xF9,,
17.5572600000,0x8B,,
17.5583100000,0x7D,,
17.5593600000,0x59,,
17.5604100000,0x8B,,
17.5614600000,0x8B,,
17.5625100000,0xD9,,
17.5635650000,0x8B,,
17.5646150000,0x71,,
17.5656650000,0x83,,
17.5667150000,0x00,,Error
17.8191650000,0x58,,Error
17.8208400000,0x8B,,
17.8218900000,0xFD,,
17.8229400000,0x8B,,
17.8239900000,0xF9,,
17.8250450000,0x8B,,
17.8260950000,0x7D,,
17.8271450000,0x59,,
17.8281950000,0x8B,,
17.8292450000,0x8B,,
17.8302950000,0xD9,,
17.8313450000,0x8B,,
17.8324000000,0x71,,
17.8334500000,0x83,,
17.8345000000,0x00,,Error
18.0911200000,0x58,,Error
18.0927900000,0x8B,,
18.0938450000,0xFD,,
18.0948950000,0x8B,,
18.0959450000,0xF9,,
18.0969950000,0x8B,,
18.0980450000,0x7D,,
18.0990950000,0x59,,
18.1001450000,0x8B,,
18.1012000000,0x8B,,
18.1022500000,0xD9,,
18.1033000000,0x8B,,
18.1043500000,0x71,,
18.1054000000,0x83,,
18.1064500000,0x00,,Error
18.3511250000,0x58,,Error
18.3528000000,0x8B,,
18.3538500000,0xFD,,
18.3549000000,0x8B,,
18.3559500000,0xF9,,
18.3570000000,0x8B,,
18.3580500000,0x7D,,
18.3591000000,0x59,,
18.3601500000,0x8B,,
18.3612050000,0x8B,,
18.3622550000,0xD9,,
18.3633050000,0x8B,,
18.3643550000,0x71,,
18.3654050000,0x83,,
18.3664550000,0x00,,Error
18.6111100000,0x58,,Error
18.6127850000,0x8B,,
18.6138350000,0xFD,,
18.6148850000,0x8B,,
18.6159350000,0xF9,,
18.6169850000,0x8B,,
18.6180400000,0x7D,,
18.6190900000,0x59,,
18.6201400000,0x8B,,
18.6211900000,0x8B,,
18.6222400000,0xD9,,
18.6232900000,0x8B,,
18.6243400000,0x71,,
18.6253950000,0x83,,
18.6264450000,0x00,,Error
18.8788050000,0x58,,Error
18.8804800000,0x8B,,
18.8815300000,0xFD,,
18.8825800000,0x8B,,
18.8836300000,0xF9,,
18.8846800000,0x8B,,
18.8857300000,0x7D,,
18.8867800000,0x59,,
18.8878350000,0x8B,,
18.8888850000,0x8B,,
18.8899350000,0xD9,,
18.8909850000,0x8B,,
18.8920350000,0x71,,
18.8930850000,0x83,,
18.8941350000,0x00,,Error
19.1487400000,0x58,,Error
19.1504150000,0x8B,,
19.1514650000,0xFD,,
19.1525150000,0x8B,,
19.1535650000,0xF9,,
19.1546150000,0x8B,,
19.1556700000,0x7D,,
19.1567200000,0x59,,
19.1577700000,0x8B,,
19.1588200000,0x8B,,
19.1598700000,0xD9,,
19.1609200000,0x8B,,
19.1619700000,0x71,,
19.1630200000,0x83,,
19.1640750000,0x00,,Error
19.4101900000,0x58,,Error
19.4118650000,0x8B,,
19.4129150000,0xFD,,
19.4139650000,0x8B,,
19.4150150000,0xF9,,
19.4160700000,0x8B,,
19.4171200000,0x7D,,
19.4181700000,0x59,,
19.4192200000,0x8B,,
19.4202700000,0x8B,,
19.4213200000,0xD9,,
19.4223700000,0x8B,,
19.4234200000,0x71,,
19.4244750000,0x83,,
19.4255250000,0x00,,Error
19.4902050000,0x58,,Error
19.4918750000,0x8B,,
19.4929300000,0xFD,,
19.4939800000,0x8B,,
19.4950300000,0xF9,,
19.4960800000,0x8B,,
19.4971300000,0x7D,,
19.4981800000,0x59,,
19.4992300000,0x8B,,
19.5002850000,0x8B,,
19.5013350000,0xD9,,
19.5023850000,0x8B,,
19.5034350000,0x71,,
19.5044850000,0x83,,
19.5055350000,0x00,,Error
19.5608400000,0x58,,Error
19.5625150000,0x8B,,
19.5635650000,0xFD,,
19.5646150000,0x8B,,
19.5656700000,0xF3,,
19.5667200000,0x8B,,
19.5677700000,0x57,,
19.5688200000,0x5F,,
19.5698700000,0x8B,,
19.5709200000,0x9F,,
19.5719700000,0x9D,,
19.5730250000,0x9F,,
19.5740750000,0x8B,,
19.5751250000,0x9D,,
19.5761750000,0x8B,,
19.5772250000,0x71,,
19.5782750000,0x83,,
19.5793250000,0x00,,Error
19.8168550000,0x58,,Error
19.8185300000,0x8B,,
19.8195800000,0xFD,,
19.8206300000,0x8B,,
19.8216800000,0xF9,,
19.8227300000,0x8B,,
19.8237850000,0x7D,,
19.8248350000,0x59,,
19.8258850000,0x8B,,
19.8269350000,0x8B,,
19.8279850000,0xD9,,
19.8290350000,0x8B,,
19.8300850000,0x71,,
19.8311400000,0x83,,
19.8321900000,0x00,,Error
20.0796350000,0x58,,Error
20.0813100000,0x8B,,
20.0823600000,0xFD,,
20.0834100000,0x8B,,
20.0844650000,0xF9,,
20.0855150000,0x8B,,
20.0865650000,0x7D,,
20.0876150000,0x59,,
20.0886650000,0x8B,,
20.0897150000,0x8B,,
20.0907650000,0xD9,,
20.0918200000,0x8B,,
20.0928700000,0x71,,
20.0939200000,0x83,,
20.0949700000,0x00,,Error
20.3496600000,0x58,,Error
20.3513300000,0x8B,,
20.3523850000,0xFD,,
20.3534350000,0x8B,,
20.3544850000,0xF9,,
20.3555350000,0x8B,,
20.3565850000,0x7D,,
20.3576350000,0x59,,
20.3586850000,0x8B,,
20.3597400000,0x8B,,
20.3607900000,0xD9,,
20.3618400000,0x8B,,
20.3628900000,0x71,,
20.3639400000,0x83,,
20.3649900000,0x00,,Error
20.5400250000,0x58,,Error
20.5417000000,0x8B,,
20.5427500000,0xFD,,
20.5438000000,0x8B,,
20.5448500000,0xF9,,
20.5459000000,0x8B,,
20.5469500000,0x59,,
20.5480050000,0x57,,
20.5490550000,0x8B,,
20.5501050000,0x8B,,
20.5511550000,0xF3,,
20.5522050000,0x8B,,
20.5532550000,0x71,,
20.5543050000,0x83,,
20.5553600000,0x00,,Error
21.5515850000,0x58,,Error
21.5532600000,0x8B,,
21.5543100000,0xFD,,
21.5553650000,0x8B,,
21.5564150000,0xF9,,
21.5574650000,0x8B,,
21.5585150000,0x59,,
21.5595650000,0x57,,
21.5606150000,0x8B,,
21.5616650000,0x8B,,
21.5627150000,0xF3,,
21.5637700000,0x8B,,
21.5648200000,0x71,,
21.5658700000,0x83,,
21.5669200000,0x00,,Error
22.5594600000,0x58,,Error
22.5611350000,0x8B,,
22.5621850000,0xFD,,
22.5632350000,0x8B,,
22.5642850000,0xF9,,
22.5653400000,0x8B,,
22.5663900000,0x59,,
22.5674400000,0x57,,
22.5684900000,0x8B,,
22.5695400000,0x8B,,
22.5705900000,0xF3,,
22.5716400000,0x8B,,
22.5726950000,0x71,,
22.5737450000,0x83,,
22.5747950000,0x00,,Error
23.5683900000,0x58,,Error
23.5700650000,0x8B,,
23.5711150000,0xFD,,
23.5721650000,0x8B,,
23.5732200000,0xF9,,
23.5742700000,0x8B,,
23.5753200000,0x59,,
23.5763700000,0x57,,
23.5774200000,0x8B,,
23.5784700000,0x8B,,
23.5795200000,0xF3,,
23.5805700000,0x8B,,
23.5816250000,0x71,,
23.5826750000,0x83,,
23.5837250000,0x00,,Error
24.5765000000,0x58,,Error
24.5781750000,0x8B,,
24.5792250000,0xFD,,
24.5802750000,0x8B,,
24.5813250000,0xF9,,
24.5823750000,0x8B,,
24.5834300000,0x59,,
24.5844800000,0x57,,
24.5855300000,0x8B,,
24.5865800000,0x8B,,
24.5876300000,0xF3,,
24.5886800000,0x8B,,
24.5897300000,0x71,,
24.5907850000,0x83,,
24.5918350000,0x00,,Error
24.6774750000,0x58,,Error
24.6791450000,0x8B,,
24.6802000000,0xFD,,
24.6812500000,0x8B,,
24.6823000000,0xF9,,
24.6833500000,0x8B,,
24.6844000000,0x7D,,
24.6854500000,0x59,,
24.6865000000,0x8B,,
24.6875550000,0x8B,,
24.6886050000,0xD9,,
24.6896550000,0x8B,,
24.6907050000,0x71,,
24.6917550000,0x83,,
24.6928050000,0x00,,Error
24.7462700000,0x58,,Error
24.7479450000,0x8B,,
24.7489950000,0xFD,,
24.7500450000,0x8B,,
24.7510950000,0xF3,,
24.7521450000,0x8B,,
24.7531950000,0x5F,,
24.7542450000,0x5F,,
24.7553000000,0x8B,,
24.7563500000,0x9D,,
24.7574000000,0x8F,,
24.7584500000,0x9F,,
24.7595000000,0x8B,,
24.7605500000,0x85,,
24.7616000000,0x8B,,
24.7626550000,0x71,,
24.7637050000,0x83,,
24.7647550000,0x00,,Error
25.0072250000,0x58,,Error
25.0089000000,0x8B,,
25.0099500000,0xFD,,
25.0110000000,0x8B,,
25.0120550000,0xF9,,
25.0131050000,0x8B,,
25.0141550000,0x7D,,
25.0152050000,0x59,,
25.0162550000,0x8B,,
25.0173050000,0x8B,,
25.0183550000,0xD9,,
25.0194100000,0x8B,,
25.0204600000,0x71,,
25.0215100000,0x83,,
25.0225600000,0x00,,Error
25.0873550000,0x58,,Error
25.0890300000,0x8B,,
25.0900800000,0xFD,,
25.0911300000,0x8B,,
25.0921800000,0xF9,,
25.0932350000,0x8B,,
25.0942850000,0x7D,,
25.0953350000,0x59,,
25.0963850000,0x8B,,
25.0974350000,0x8B,,
25.0984850000,0xD9,,
25.0995350000,0x8B,,
25.1005900000,0x71,,
25.1016400000,0x83,,
25.1026900000,0x00,,Error
25.1773750000,0x58,,Error
25.1790500000,0x8B,,
25.1801000000,0xFD,,
25.1811500000,0x8B,,
25.1822050000,0xF3,,
25.1832550000,0x8B,,
25.1843050000,0x57,,
25.1853550000,0x5F,,
25.1864050000,0x8B,,
25.1874550000,0x9F,,
25.1885050000,0x9F,,
25.1895600000,0x9F,,
25.1906100000,0x8B,,
25.1916600000,0x9F,,
25.1927100000,0x8B,,
25.1937600000,0x71,,
25.1948100000,0x83,,
25.1958600000,0x00,,Error
25.4480650000,0x58,,Error
25.4497400000,0x8B,,
25.4507900000,0xFD,,
25.4518400000,0x8B,,
25.4528900000,0xF9,,
25.4539400000,0x8B,,
25.4549950000,0x7D,,
25.4560450000,0x59,,
25.4570950000,0x8B,,
25.4581450000,0x8B,,
25.4591950000,0xD9,,
25.4602450000,0x8B,,
25.4612950000,0x71,,
25.4623450000,0x83,,
25.4634000000,0x00,,Error
25.7180050000,0x58,,Error
25.7196800000,0x8B,,
25.7207300000,0xFD,,
25.7217800000,0x8B,,
25.7228350000,0xF9,,
25.7238850000,0x8B,,
25.7249350000,0x7D,,
25.7259850000,0x59,,
25.7270350000,0x8B,,
25.7280850000,0x8B,,
25.7291350000,0xD9,,
25.7301900000,0x8B,,
25.7312400000,0x71,,
25.7322900000,0x83,,
25.7333400000,0x00,,Error
25.9863550000,0x58,,Error
25.9880300000,0x8B,,
25.9890800000,0xFD,,
25.9901300000,0x8B,,
25.9911800000,0xF9,,
25.9922350000,0x8B,,
25.9932850000,0x7D,,
25.9943350000,0x59,,
25.9953850000,0x8B,,
25.9964350000,0x8B,,
25.9974850000,0xD9,,
25.9985350000,0x8B,,
25.9995900000,0x71,,
26.0006400000,0x83,,
26.0016900000,0x00,,Error
26.5863550000,0x58,,Error
26.5880300000,0x8B,,
26.5890800000,0xFD,,
26.5901300000,0x8B,,
26.5911800000,0xF9,,
26.5922300000,0x8B,,
26.5932850000,0x59,,
26.5943350000,0x57,,
26.5953850000,0x8B,,
26.5964350000,0x8B,,
26.5974850000,0xF3,,
26.5985350000,0x8B,,
26.5995850000,0x71,,
26.6006400000,0x83,,
26.6016900000,0x00,,Error
27.5900850000,0x58,,Error
27.5917600000,0x8B,,
27.5928150000,0xFD,,
27.5938650000,0x8B,,
27.5949150000,0xF9,,
27.5959650000,0x8B,,
27.5970150000,0x59,,
27.5980650000,0x57,,
27.5991150000,0x8B,,
27.6001700000,0x8B,,
27.6012200000,0xF3,,
27.6022700000,0x8B,,
27.6033200000,0x71,,
27.6043700000,0x83,,
27.6054200000,0x00,,Error
28.5985800000,0x58,,Error
28.6002500000,0x8B,,
28.6013050000,0xFD,,
28.6023550000,0x8B,,
28.6034050000,0xF9,,
28.6044550000,0x8B,,
28.6055050000,0x59,,
28.6065550000,0x57,,
28.6076050000,0x8B,,
28.6086600000,0x8B,,
28.6097100000,0xF3,,
28.6107600000,0x8B,,
28.6118100000,0x71,,
28.6128600000,0x83,,
28.6139100000,0x00,,Error
29.5994050000,0x58,,Error
29.6010800000,0x8B,,
29.6021300000,0xFD,,
29.6031800000,0x8B,,
29.6042350000,0xF9,,
29.6052850000,0x8B,,
29.6063350000,0x59,,
29.6073850000,0x57,,
29.6084350000,0x8B,,
29.6094850000,0x8B,,
29.6105350000,0xF3,,
29.6115900000,0x8B,,
29.6126400000,0x71,,
29.6136900000,0x83,,
29.6147400000,0x00,,Error
30.5298350000,0x58,,Error
30.5315100000,0x8B,,
30.5325600000,0xFD,,
30.5336100000,0x8B,,
30.5346600000,0xF9,,
30.5357100000,0x8B,,
30.5367600000,0x7D,,
30.5378100000,0x59,,
30.5388650000,0x8B,,
30.5399150000,0x8B,,
30.5409650000,0xD9,,
30.5420150000,0x8B,,
30.5430650000,0x71,,
30.5441150000,0x83,,
30.5451650000,0x00,,Error
30.6187000000,0x58,,Error
30.6203750000,0x8B,,
30.6214250000,0xFD,,
30.6224800000,0x8B,,
30.6235300000,0xF3,,
30.6245800000,0x8B,,
30.6256300000,0x5F,,
30.6266800000,0x5F,,
30.6277300000,0x8B,,
30.6287800000,0x9D,,
30.6298350000,0x8F,,
30.6308850000,0x9F,,
30.6319350000,0x8B,,
